
T70E8 000:048 SEGGER J-Link V6.14b Log File (0001ms, 0020ms total)
T70E8 000:048 DLL Compiled: Mar  9 2017 08:46:04 (0001ms, 0020ms total)
T70E8 000:048 Logging started @ 2019-06-01 10:14 (0001ms, 0020ms total)
T70E8 000:049 JLINK_SetWarnOutHandler(...) (0000ms, 0020ms total)
T70E8 000:049 JLINK_OpenEx(...)
Firmware: J-Link ARM-OB STM32 compiled Aug 22 2012 19:52:04
Hardware: V7.00
S/N: 20090937
Feature(s): RDI,FlashDL,FlashBP,JFlash,GDBFullWEBSRV Webserver running on local port 19080 (0010ms, 0030ms total)
T70E8 000:049   returns O.K. (0010ms, 0030ms total)
T70E8 000:059 JLINK_SetErrorOutHandler(...) (0000ms, 0030ms total)
T70E8 000:059 JLINK_ExecCommand("ProjectFile = "D:\新建文件夹 (4)\trunk\Project\RVMDK（uv4）\JLinkSettings.ini"", ...).   returns 0x00 (0106ms, 0136ms total)
T70E8 000:165 JLINK_ExecCommand("Device = STM32F103VC", ...). Device "STM32F103VC" selected.  returns 0x00 (0001ms, 0137ms total)
T70E8 000:166 JLINK_ExecCommand("DisableConnectionTimeout", ...).   returns 0x01 (0000ms, 0138ms total)
T70E8 000:167 JLINK_GetHardwareVersion()  returns 0x11170 (0000ms, 0138ms total)
T70E8 000:167 JLINK_GetDLLVersion()  returns 61402 (0000ms, 0138ms total)
T70E8 000:167 JLINK_GetFirmwareString(...) (0000ms, 0138ms total)
T70E8 000:167 JLINK_GetDLLVersion()  returns 61402 (0000ms, 0138ms total)
T70E8 000:167 JLINK_GetCompileDateTime() (0000ms, 0138ms total)
T70E8 000:168 JLINK_GetFirmwareString(...) (0000ms, 0138ms total)
T70E8 000:168 JLINK_GetHardwareVersion()  returns 0x11170 (0000ms, 0138ms total)
T70E8 000:169 JLINK_TIF_Select(JLINKARM_TIF_SWD)  returns 0x00 (0000ms, 0138ms total)
T70E8 000:169 JLINK_SetSpeed(20000) (0000ms, 0138ms total)
T70E8 000:169 JLINK_GetId() >0x108 TIF>Found SWD-DP with ID 0x1BA01477 >0x0D TIF> >0x28 TIF> >0x0D TIF> >0x28 TIF> >0x0D TIF> >0x28 TIF> >0x0D TIF> >0x28 TIF> >0x0D TIF> >0x21 TIF> >0x0D TIF> >0x28 TIF> >0x0D TIF> >0x28 TIF> >0x0D TIF> >0x28 TIF> >0x0D TIF> >0x21 TIF> >0x0D TIF> >0x21 TIF> >0x0D TIF> >0x28 TIF> >0x0D TIF> >0x21 TIF> >0x0D TIF> >0x21 TIF> >0x0D TIF> >0x28 TIF> >0x0D TIF> >0x21 TIF> >0x0D TIF> >0x21 TIF> >0x0D TIF> >0x28 TIF> >0x0D TIF> >0x21 TIF> >0x0D TIF> >0x21 TIF> >0x0D TIF>
 >0x28 TIF> >0x0D TIF> >0x21 TIF> >0x0D TIF> >0x21 TIF> >0x0D TIF> >0x28 TIF> >0x0D TIF> >0x21 TIF> >0x0D TIF> >0x21 TIF> >0x0D TIF> >0x28 TIF> >0x0D TIF> >0x21 TIF> >0x0D TIF> >0x21 TIF> >0x108 TIF>Found SWD-DP with ID 0x1BA01477 >0x0D TIF> >0x28 TIF> >0x0D TIF> >0x28 TIF> >0x0D TIF> >0x28 TIF> >0x0D TIF> >0x28 TIF> >0x0D TIF> >0x21 TIF> >0x0D TIF> >0x28 TIF> >0x0D TIF> >0x28 TIF> >0x0D TIF> >0x21 TIF> >0x0D TIF> >0x21 TIF> >0x0D TIF> >0x21 TIF>AP-IDR: 0x14770011, Type: AHB-AP
AHB-AP ROM: 0xE00FF000 (Base addr. of first ROM table) >0x0D TIF> >0x28 TIF> >0x0D TIF> >0x28 TIF> >0x0D TIF> >0x28 TIF> >0x0D TIF> >0x21 TIF> >0x0D TIF> >0x21 TIF> >0x0D TIF> >0x28 TIF> >0x0D TIF> >0x21 TIF> >0x0D TIF> >0x21 TIF>Found Cortex-M3 r1p1, Little endian. -- CPU_ReadMem(4 bytes @ 0xE000EDF0) -- CPU_WriteMem(4 bytes @ 0xE000EDF0) -- CPU_ReadMem(4 bytes @ 0xE0002000)FPUnit: 6 code (BP) slots and 2 literal slots -- CPU_ReadMem(4 bytes @ 0xE000EDFC) -- CPU_WriteMem(4 bytes @ 0xE000EDFC)
 -- CPU_ReadMem(4 bytes @ 0xE0001000) -- CPU_WriteMem(4 bytes @ 0xE0001000) -- CPU_ReadMem(4 bytes @ 0xE000ED88) -- CPU_WriteMem(4 bytes @ 0xE000ED88) -- CPU_ReadMem(4 bytes @ 0xE000ED88) -- CPU_WriteMem(4 bytes @ 0xE000ED88)CoreSight components:ROMTbl 0 @ E00FF000 -- CPU_ReadMem(16 bytes @ 0xE00FF000) -- CPU_ReadMem(16 bytes @ 0xE000EFF0) -- CPU_ReadMem(16 bytes @ 0xE000EFE0)ROMTbl 0 [0]: FFF0F000, CID: B105E00D, PID: 001BB000 SCS -- CPU_ReadMem(16 bytes @ 0xE0001FF0)
 -- CPU_ReadMem(16 bytes @ 0xE0001FE0)ROMTbl 0 [1]: FFF02000, CID: B105E00D, PID: 001BB002 DWT -- CPU_ReadMem(16 bytes @ 0xE0002FF0) -- CPU_ReadMem(16 bytes @ 0xE0002FE0)ROMTbl 0 [2]: FFF03000, CID: B105E00D, PID: 000BB003 FPB -- CPU_ReadMem(16 bytes @ 0xE0000FF0) -- CPU_ReadMem(16 bytes @ 0xE0000FE0)ROMTbl 0 [3]: FFF01000, CID: B105E00D, PID: 001BB001 ITM -- CPU_ReadMem(16 bytes @ 0xE00FF010) -- CPU_ReadMem(16 bytes @ 0xE0040FF0) -- CPU_ReadMem(16 bytes @ 0xE0040FE0)
ROMTbl 0 [4]: FFF41000, CID: B105900D, PID: 001BB923 TPIU-Lite -- CPU_ReadMem(16 bytes @ 0xE0041FF0) -- CPU_ReadMem(16 bytes @ 0xE0041FE0)ROMTbl 0 [5]: FFF42000, CID: B105900D, PID: 101BB924 ETM-M3 >0x0D TIF> >0x21 TIF>  returns 0x1BA01477 (0037ms, 0175ms total)
T70E8 000:206 JLINK_GetDLLVersion()  returns 61402 (0000ms, 0175ms total)
T70E8 000:206 JLINK_CORE_GetFound()  returns 0x30000FF (0000ms, 0175ms total)
T70E8 000:206 JLINK_GetDebugInfo(0x100 = JLINKARM_ROM_TABLE_ADDR_INDEX) -- Value=0xE00FF000  returns 0x00 (0000ms, 0175ms total)
T70E8 000:206 JLINK_ReadMem (0xE00FF000, 0x0020 Bytes, ...) -- CPU is running -- CPU_ReadMem(32 bytes @ 0xE00FF000) - Data: 03 F0 F0 FF 03 20 F0 FF 03 30 F0 FF 03 10 F0 FF ...  returns 0x00 (0001ms, 0176ms total)
T70E8 000:207 JLINK_ReadMem (0xE000EFF0, 0x0010 Bytes, ...) -- CPU is running -- CPU_ReadMem(16 bytes @ 0xE000EFF0) - Data: 0D 00 00 00 E0 00 00 00 05 00 00 00 B1 00 00 00  returns 0x00 (0001ms, 0177ms total)
T70E8 000:208 JLINK_ReadMem (0xE000EFD0, 0x0020 Bytes, ...) -- CPU is running -- CPU_ReadMem(32 bytes @ 0xE000EFD0) - Data: 04 00 00 00 00 00 00 00 00 00 00 00 00 00 00 00 ...  returns 0x00 (0000ms, 0177ms total)
T70E8 000:208 JLINK_ReadMem (0xE0001FF0, 0x0010 Bytes, ...) -- CPU is running -- CPU_ReadMem(16 bytes @ 0xE0001FF0) - Data: 0D 00 00 00 E0 00 00 00 05 00 00 00 B1 00 00 00  returns 0x00 (0001ms, 0178ms total)
T70E8 000:209 JLINK_ReadMem (0xE0001FD0, 0x0020 Bytes, ...) -- CPU is running -- CPU_ReadMem(32 bytes @ 0xE0001FD0) - Data: 04 00 00 00 00 00 00 00 00 00 00 00 00 00 00 00 ...  returns 0x00 (0001ms, 0179ms total)
T70E8 000:210 JLINK_ReadMem (0xE0002FF0, 0x0010 Bytes, ...) -- CPU is running -- CPU_ReadMem(16 bytes @ 0xE0002FF0) - Data: 0D 00 00 00 E0 00 00 00 05 00 00 00 B1 00 00 00  returns 0x00 (0000ms, 0179ms total)
T70E8 000:210 JLINK_ReadMem (0xE0002FD0, 0x0020 Bytes, ...) -- CPU is running -- CPU_ReadMem(32 bytes @ 0xE0002FD0) - Data: 04 00 00 00 00 00 00 00 00 00 00 00 00 00 00 00 ...  returns 0x00 (0001ms, 0180ms total)
T70E8 000:211 JLINK_ReadMem (0xE0000FF0, 0x0010 Bytes, ...) -- CPU is running -- CPU_ReadMem(16 bytes @ 0xE0000FF0) - Data: 0D 00 00 00 E0 00 00 00 05 00 00 00 B1 00 00 00  returns 0x00 (0001ms, 0181ms total)
T70E8 000:212 JLINK_ReadMem (0xE0000FD0, 0x0020 Bytes, ...) -- CPU is running -- CPU_ReadMem(32 bytes @ 0xE0000FD0) - Data: 04 00 00 00 00 00 00 00 00 00 00 00 00 00 00 00 ...  returns 0x00 (0001ms, 0182ms total)
T70E8 000:213 JLINK_ReadMem (0xE0040FF0, 0x0010 Bytes, ...) -- CPU is running -- CPU_ReadMem(16 bytes @ 0xE0040FF0) - Data: 0D 00 00 00 90 00 00 00 05 00 00 00 B1 00 00 00  returns 0x00 (0000ms, 0182ms total)
T70E8 000:213 JLINK_ReadMem (0xE0040FD0, 0x0020 Bytes, ...) -- CPU is running -- CPU_ReadMem(32 bytes @ 0xE0040FD0) - Data: 04 00 00 00 00 00 00 00 00 00 00 00 00 00 00 00 ...  returns 0x00 (0001ms, 0183ms total)
T70E8 000:214 JLINK_ReadMem (0xE0041FF0, 0x0010 Bytes, ...) -- CPU is running -- CPU_ReadMem(16 bytes @ 0xE0041FF0) - Data: 0D 00 00 00 90 00 00 00 05 00 00 00 B1 00 00 00  returns 0x00 (0001ms, 0184ms total)
T70E8 000:215 JLINK_ReadMem (0xE0041FD0, 0x0020 Bytes, ...) -- CPU is running -- CPU_ReadMem(32 bytes @ 0xE0041FD0) - Data: 04 00 00 00 00 00 00 00 00 00 00 00 00 00 00 00 ...  returns 0x00 (0000ms, 0184ms total)
T70E8 000:215 JLINK_ReadMemU32(0xE000ED00, 0x0001 Items, ...) -- CPU is running -- CPU_ReadMem(4 bytes @ 0xE000ED00) - Data: 31 C2 1F 41  returns 0x01 (0001ms, 0185ms total)
T70E8 000:216 JLINK_SetResetType(JLINKARM_CM3_RESET_TYPE_NORMAL)  returns JLINKARM_CM3_RESET_TYPE_NORMAL (0000ms, 0185ms total)
T70E8 000:216 JLINK_Reset() -- CPU is running -- CPU_WriteMem(4 bytes @ 0xE000EDF0) -- CPU is running -- CPU_WriteMem(4 bytes @ 0xE000EDFC) >0x35 TIF> -- CPU is running -- CPU_WriteMem(4 bytes @ 0xE000ED0C) >0x0D TIF> >0x28 TIF> -- CPU is running -- CPU_ReadMem(4 bytes @ 0xE000EDF0) -- CPU is running -- CPU_ReadMem(4 bytes @ 0xE000EDF0) -- CPU is running -- CPU_WriteMem(4 bytes @ 0xE000EDF0) -- CPU is running -- CPU_WriteMem(4 bytes @ 0xE000EDFC) -- CPU is running -- CPU_ReadMem(4 bytes @ 0xE000EDF0)
 -- CPU_WriteMem(4 bytes @ 0xE0002000) -- CPU_ReadMem(4 bytes @ 0xE000EDFC) -- CPU_ReadMem(4 bytes @ 0xE0001000) (0067ms, 0252ms total)
T70E8 000:283 JLINK_ReadReg(R15 (PC))  returns 0x08000144 (0000ms, 0252ms total)
T70E8 000:283 JLINK_ReadReg(XPSR)  returns 0x01000000 (0000ms, 0252ms total)
T70E8 000:284 JLINK_Halt()  returns 0x00 (0000ms, 0253ms total)
T70E8 000:284 JLINK_IsHalted()  returns TRUE (0000ms, 0253ms total)
T70E8 000:284 JLINK_ReadMemU32(0xE000EDF0, 0x0001 Items, ...) -- CPU_ReadMem(4 bytes @ 0xE000EDF0) - Data: 03 00 03 00  returns 0x01 (0000ms, 0253ms total)
T70E8 000:284 JLINK_WriteU32(0xE000EDF0, 0xA05F0003) -- CPU_WriteMem(4 bytes @ 0xE000EDF0)  returns 0x00 (0001ms, 0254ms total)
T70E8 000:285 JLINK_WriteU32(0xE000EDFC, 0x01000000) -- CPU_WriteMem(4 bytes @ 0xE000EDFC)  returns 0x00 (0000ms, 0254ms total)
T70E8 000:287 JLINK_GetHWStatus(...)  returns 0x00 (0000ms, 0254ms total)
T70E8 000:288 JLINK_GetNumBPUnits(Type = 0xFFFFFF00)  returns 0x06 (0000ms, 0254ms total)
T70E8 000:288 JLINK_GetNumBPUnits(Type = 0xF0)  returns 0x2000 (0000ms, 0254ms total)
T70E8 000:288 JLINK_GetNumWPUnits()  returns 0x04 (0000ms, 0254ms total)
T70E8 000:288 JLINK_GetSpeed()  returns 0xFA0 (0000ms, 0254ms total)
T70E8 000:289 JLINK_ReadMemU32(0xE000E004, 0x0001 Items, ...) -- CPU_ReadMem(4 bytes @ 0xE000E004) - Data: 01 00 00 00  returns 0x01 (0000ms, 0254ms total)
T70E8 000:289 JLINK_ReadMemU32(0xE000E004, 0x0001 Items, ...) -- CPU_ReadMem(4 bytes @ 0xE000E004) - Data: 01 00 00 00  returns 0x01 (0001ms, 0255ms total)
T70E8 000:290 JLINK_WriteMem(0xE0001000, 0x001C Bytes, ...) - Data: 01 00 00 00 00 00 00 00 00 00 00 00 00 00 00 00 ... -- CPU_WriteMem(28 bytes @ 0xE0001000)  returns 0x1C (0001ms, 0256ms total)
T70E8 000:291 JLINK_ReadMem (0xE0001000, 0x001C Bytes, ...) -- CPU_ReadMem(28 bytes @ 0xE0001000) - Data: 01 00 00 40 00 00 00 00 00 00 00 00 00 00 00 00 ...  returns 0x00 (0001ms, 0257ms total)
T70E8 000:292 JLINK_ReadReg(R15 (PC))  returns 0x08000144 (0000ms, 0257ms total)
T70E8 000:292 JLINK_ReadReg(XPSR)  returns 0x01000000 (0000ms, 0257ms total)
T70E8 000:376 JLINK_SetResetType(JLINKARM_CM3_RESET_TYPE_NORMAL)  returns JLINKARM_CM3_RESET_TYPE_NORMAL (0000ms, 0257ms total)
T70E8 000:376 JLINK_Reset() -- CPU_WriteMem(4 bytes @ 0xE000EDF0) -- CPU_WriteMem(4 bytes @ 0xE000EDFC) >0x35 TIF> -- CPU_WriteMem(4 bytes @ 0xE000ED0C) >0x0D TIF> >0x28 TIF> -- CPU_ReadMem(4 bytes @ 0xE000EDF0) -- CPU_ReadMem(4 bytes @ 0xE000EDF0) -- CPU_WriteMem(4 bytes @ 0xE000EDF0) -- CPU_WriteMem(4 bytes @ 0xE000EDFC) -- CPU is running -- CPU_ReadMem(4 bytes @ 0xE000EDF0) -- CPU_WriteMem(4 bytes @ 0xE0002000) -- CPU_ReadMem(4 bytes @ 0xE000EDFC) -- CPU_ReadMem(4 bytes @ 0xE0001000)
 (0068ms, 0325ms total)
T70E8 000:444 JLINK_ReadReg(R15 (PC))  returns 0x08000144 (0000ms, 0325ms total)
T70E8 000:444 JLINK_ReadReg(XPSR)  returns 0x01000000 (0000ms, 0325ms total)
T70E8 000:445 JLINK_ReadMem (0x08000144, 0x003C Bytes, ...) -- CPU_ReadMem(64 bytes @ 0x08000140) -- Updating C cache (64 bytes @ 0x08000140) -- Read from C cache (60 bytes @ 0x08000144) - Data: 06 48 80 47 06 48 00 47 FE E7 FE E7 FE E7 FE E7 ...  returns 0x00 (0001ms, 0326ms total)
T70E8 001:739 JLINK_ReadMem (0x00000000, 0x0090 Bytes, ...) -- CPU_ReadMem(4 bytes @ 0x00000004) -- CPU_ReadMem(192 bytes @ 0x08000000) -- Updating C cache (192 bytes @ 0x08000000) -- Read from C cache (144 bytes @ 0x08000000) - Data: A0 8E 00 20 45 01 00 08 89 14 00 08 8B 14 00 08 ...  returns 0x00 (0003ms, 0329ms total)
T70E8 004:808 JLINK_ReadMemU32(0xE0001004, 0x0001 Items, ...) - Data: 00 00 00 00  returns 0x01 (0000ms, 0329ms total)
T70E8 006:284 JLINK_ReadMem (0x08001676, 0x0002 Bytes, ...) -- CPU_ReadMem(64 bytes @ 0x08001640) -- Updating C cache (64 bytes @ 0x08001640) -- Read from C cache (2 bytes @ 0x08001676) - Data: 4F F4  returns 0x00 (0001ms, 0330ms total)
T70E8 006:285 JLINK_ReadMem (0x08001678, 0x003C Bytes, ...) -- CPU_ReadMem(64 bytes @ 0x08001680) -- Updating C cache (64 bytes @ 0x08001680) -- Read from C cache (60 bytes @ 0x08001678) - Data: FC 66 4B F6 40 47 4F F4 A0 79 4F F4 78 4A 4F F0 ...  returns 0x00 (0001ms, 0331ms total)
T8C74 013:165 JLINK_SetBPEx(Addr = 0x08001676, Type = 0xFFFFFFF2)  returns 0x00000001 (0000ms, 0332ms total)
T8C74 013:165 JLINK_SetBPEx(Addr = 0x080016CC, Type = 0xFFFFFFF2)  returns 0x00000002 (0000ms, 0332ms total)
T8C74 013:165 JLINK_SetBPEx(Addr = 0x08001682, Type = 0xFFFFFFF2)  returns 0x00000003 (0000ms, 0332ms total)
T8C74 013:165 JLINK_SetBPEx(Addr = 0x080016D8, Type = 0xFFFFFFF2)  returns 0x00000004 (0000ms, 0332ms total)
T8C74 013:165 JLINK_SetBPEx(Addr = 0x0800167A, Type = 0xFFFFFFF2)  returns 0x00000005 (0000ms, 0332ms total)
T8C74 013:165 JLINK_SetBPEx(Addr = 0x080016F2, Type = 0xFFFFFFF2)  returns 0x00000006 (0000ms, 0332ms total)
T8C74 013:165 JLINK_SetBPEx(Addr = 0x0800166E, Type = 0xFFFFFFF2) -- BP[0] @ 0x08001676 converted into FlashBP  returns 0x00000007 (0000ms, 0332ms total)
T8C74 013:165 JLINK_SetBPEx(Addr = 0x0800170C, Type = 0xFFFFFFF2) -- BP[1] @ 0x080016CC converted into FlashBP  returns 0x00000008 (0000ms, 0332ms total)
T8C74 013:165 JLINK_SetBPEx(Addr = 0x08001686, Type = 0xFFFFFFF2) -- BP[2] @ 0x08001682 converted into FlashBP  returns 0x00000009 (0000ms, 0332ms total)
T8C74 013:165 JLINK_SetBPEx(Addr = 0x08001722, Type = 0xFFFFFFF2) -- BP[3] @ 0x080016D8 converted into FlashBP  returns 0x0000000A (0000ms, 0332ms total)
T8C74 013:165 JLINK_Go() -- Read from C cache (2 bytes @ 0x08000144) -- CPU_ReadMem(4 bytes @ 0xE000ED18) -- CPU_WriteMem(4 bytes @ 0xE000ED18) -- CPU_ReadMem(4 bytes @ 0xE000ED18) -- CPU_WriteMem(4 bytes @ 0xE000ED18) -- Read from C cache (4 bytes @ 0x08000160) -- Simulated -- Read from C cache (2 bytes @ 0x08000146) -- Simulated -- CPU_ReadMem(64 bytes @ 0x08000200) -- Updating C cache (64 bytes @ 0x08000200) -- Read from C cache (2 bytes @ 0x08000210) -- CPU_WriteMem(8 bytes @ 0x20008E98) -- Simulated
 -- Read from C cache (2 bytes @ 0x08000212) -- CPU_ReadMem(64 bytes @ 0x08000280) -- Updating C cache (64 bytes @ 0x08000280) -- Read from C cache (4 bytes @ 0x080002BC) -- Simulated -- Read from C cache (2 bytes @ 0x08000214) -- Not simulated -- Start of preparing flash programming -- Calculating RAM usage -- RAM usage = 6076 Bytes -- Preserving CPU registers -- Preparing memory -- Determining CPU clock frequency -- Preparing target -- Preserving target RAM temporarily used for programming
 -- Downloading RAMCode -- Checking target RAM -- Preparing RAMCode -- End of preparing flash programming -- CPU is running -- CPU_ReadMem(2048 bytes @ 0x08001000) -- Updating flash cache (2048 bytes @ 0x08001000) -- Programming range 0x08001000 - 0x080017FF (001 Sector, 2 KB) -- Start of restoring -- Restoring RAMCode -- Restoring target memory -- Restore target -- Restore memory -- Restoring CPU registers -- End of restoring -- CPU_WriteMem(4 bytes @ 0xE0002000) -- CPU_WriteMem(4 bytes @ 0xE0002000)
 -- CPU_WriteMem(4 bytes @ 0xE0002000) -- CPU_WriteMem(4 bytes @ 0xE0002000) -- CPU_WriteMem(4 bytes @ 0xE0002000) -- CPU_WriteMem(4 bytes @ 0xE0002000) -- CPU_ReadMem(4 bytes @ 0xE0001000) -- CPU_WriteMem(4 bytes @ 0xE0002008) -- CPU_WriteMem(4 bytes @ 0xE000200C) -- CPU_WriteMem(4 bytes @ 0xE0002010) -- CPU_WriteMem(4 bytes @ 0xE0002014) -- CPU_WriteMem(4 bytes @ 0xE0002018) -- CPU_WriteMem(4 bytes @ 0xE000201C) (0312ms, 0644ms total)
T8C74 013:578 JLINK_IsHalted()  returns FALSE (0000ms, 0644ms total)
T8C74 013:679 JLINK_IsHalted()  returns TRUE (0003ms, 0647ms total)
T8C74 013:682 JLINK_Halt()  returns 0x00 (0000ms, 0644ms total)
T8C74 013:682 JLINK_IsHalted()  returns TRUE (0000ms, 0644ms total)
T8C74 013:682 JLINK_IsHalted()  returns TRUE (0000ms, 0644ms total)
T8C74 013:682 JLINK_IsHalted()  returns TRUE (0000ms, 0644ms total)
T8C74 013:682 JLINK_ReadReg(R15 (PC))  returns 0x0800166E (0000ms, 0644ms total)
T8C74 013:682 JLINK_ReadReg(XPSR)  returns 0x01000000 (0000ms, 0644ms total)
T8C74 013:682 JLINK_ClrBPEx(BPHandle = 0x00000001)  returns 0x00 (0000ms, 0644ms total)
T8C74 013:682 JLINK_ClrBPEx(BPHandle = 0x00000002)  returns 0x00 (0000ms, 0644ms total)
T8C74 013:683 JLINK_ClrBPEx(BPHandle = 0x00000003)  returns 0x00 (0000ms, 0645ms total)
T8C74 013:683 JLINK_ClrBPEx(BPHandle = 0x00000004)  returns 0x00 (0000ms, 0645ms total)
T8C74 013:683 JLINK_ClrBPEx(BPHandle = 0x00000005)  returns 0x00 (0000ms, 0645ms total)
T8C74 013:683 JLINK_ClrBPEx(BPHandle = 0x00000006)  returns 0x00 (0000ms, 0645ms total)
T8C74 013:683 JLINK_ClrBPEx(BPHandle = 0x00000007)  returns 0x00 (0000ms, 0645ms total)
T8C74 013:683 JLINK_ClrBPEx(BPHandle = 0x00000008)  returns 0x00 (0000ms, 0645ms total)
T8C74 013:683 JLINK_ClrBPEx(BPHandle = 0x00000009)  returns 0x00 (0000ms, 0645ms total)
T8C74 013:683 JLINK_ClrBPEx(BPHandle = 0x0000000A)  returns 0x00 (0000ms, 0645ms total)
T8C74 013:683 JLINK_ReadMemU32(0xE000ED30, 0x0001 Items, ...) -- CPU_ReadMem(4 bytes @ 0xE000ED30) - Data: 03 00 00 00  returns 0x01 (0001ms, 0646ms total)
T8C74 013:684 JLINK_ReadMemU32(0xE0001028, 0x0001 Items, ...) -- CPU_ReadMem(4 bytes @ 0xE0001028) - Data: 00 00 00 00  returns 0x01 (0000ms, 0646ms total)
T8C74 013:684 JLINK_ReadMemU32(0xE0001038, 0x0001 Items, ...) -- CPU_ReadMem(4 bytes @ 0xE0001038) - Data: 00 02 00 00  returns 0x01 (0001ms, 0647ms total)
T8C74 013:685 JLINK_ReadMemU32(0xE0001048, 0x0001 Items, ...) -- CPU_ReadMem(4 bytes @ 0xE0001048) - Data: 00 00 00 00  returns 0x01 (0001ms, 0648ms total)
T8C74 013:686 JLINK_ReadMemU32(0xE0001058, 0x0001 Items, ...) -- CPU_ReadMem(4 bytes @ 0xE0001058) - Data: 00 00 00 00  returns 0x01 (0001ms, 0649ms total)
T8C74 013:687 JLINK_ReadReg(R0)  returns 0x00000000 (0000ms, 0649ms total)
T8C74 013:687 JLINK_ReadReg(R1)  returns 0x20005868 (0000ms, 0649ms total)
T8C74 013:687 JLINK_ReadReg(R2)  returns 0x02020202 (0000ms, 0649ms total)
T8C74 013:687 JLINK_ReadReg(R3)  returns 0x03030303 (0000ms, 0649ms total)
T8C74 013:687 JLINK_ReadReg(R4)  returns 0x04040404 (0000ms, 0649ms total)
T8C74 013:687 JLINK_ReadReg(R5)  returns 0x40011800 (0000ms, 0649ms total)
T8C74 013:687 JLINK_ReadReg(R6)  returns 0x06060606 (0000ms, 0649ms total)
T8C74 013:687 JLINK_ReadReg(R7)  returns 0x07070707 (0000ms, 0649ms total)
T8C74 013:687 JLINK_ReadReg(R8)  returns 0x08080808 (0000ms, 0649ms total)
T8C74 013:687 JLINK_ReadReg(R9)  returns 0x09090909 (0000ms, 0649ms total)
T8C74 013:687 JLINK_ReadReg(R10)  returns 0x10101010 (0000ms, 0649ms total)
T8C74 013:687 JLINK_ReadReg(R11)  returns 0x11111111 (0000ms, 0649ms total)
T8C74 013:687 JLINK_ReadReg(R12)  returns 0x12121212 (0000ms, 0649ms total)
T8C74 013:687 JLINK_ReadReg(R13 (SP))  returns 0x20005978 (0000ms, 0649ms total)
T8C74 013:687 JLINK_ReadReg(R14)  returns 0x08006421 (0000ms, 0649ms total)
T8C74 013:687 JLINK_ReadReg(R15 (PC))  returns 0x0800166E (0000ms, 0649ms total)
T8C74 013:687 JLINK_ReadReg(XPSR)  returns 0x01000000 (0000ms, 0649ms total)
T8C74 013:687 JLINK_ReadReg(MSP)  returns 0x20007748 (0000ms, 0649ms total)
T8C74 013:687 JLINK_ReadReg(PSP)  returns 0x20005978 (0000ms, 0649ms total)
T8C74 013:687 JLINK_ReadReg(CFBP)  returns 0x02000000 (0000ms, 0649ms total)
T70E8 013:688 JLINK_ReadMem (0x20005984, 0x0004 Bytes, ...) -- CPU_ReadMem(64 bytes @ 0x20005980) -- Updating C cache (64 bytes @ 0x20005980) -- Read from C cache (4 bytes @ 0x20005984) - Data: 21 64 00 08  returns 0x00 (0001ms, 0650ms total)
T70E8 013:691 JLINK_ReadMem (0x20005980, 0x0002 Bytes, ...) -- Read from C cache (2 bytes @ 0x20005980) - Data: 03 03  returns 0x00 (0000ms, 0650ms total)
T70E8 013:691 JLINK_ReadMem (0x00000000, 0x0004 Bytes, ...) -- CPU_ReadMem(4 bytes @ 0x00000004) -- CPU_ReadMem(64 bytes @ 0x08000000) -- Updating C cache (64 bytes @ 0x08000000) -- Read from C cache (4 bytes @ 0x08000000) - Data: A0 8E 00 20  returns 0x00 (0002ms, 0652ms total)
T70E8 013:693 JLINK_ReadMemU32(0xE0001004, 0x0001 Items, ...) -- CPU_ReadMem(4 bytes @ 0xE0001004) - Data: 32 5F D8 00  returns 0x01 (0001ms, 0653ms total)
T70E8 013:697 JLINK_ReadMem (0x0800166E, 0x0002 Bytes, ...) -- Read from flash cache (2 bytes @ 0x0800166E) - Data: DF F8  returns 0x00 (0000ms, 0653ms total)
T70E8 013:697 JLINK_ReadMem (0x08001670, 0x003C Bytes, ...) -- Read from flash cache (60 bytes @ 0x08001670) -- Merging zombie BP[0]: 0xF44F @ 0x08001676 -- Merging zombie BP[2]: 0xF44F @ 0x08001682 - Data: F8 B3 4F F4 FA 74 4F F4 FC 66 4B F6 40 47 4F F4 ...  returns 0x00 (0000ms, 0653ms total)
T70E8 016:426 JLINK_SetResetType(JLINKARM_CM3_RESET_TYPE_NORMAL)  returns JLINKARM_CM3_RESET_TYPE_NORMAL (0000ms, 0653ms total)
T70E8 016:426 JLINK_Reset() -- Start of preparing flash programming -- Calculating RAM usage -- RAM usage = 6076 Bytes -- Preserving CPU registers -- Preparing memory -- Determining CPU clock frequency -- Preparing target -- Preserving target RAM temporarily used for programming -- Downloading RAMCode -- Not first flash download, checking target RAM skipped -- Preparing RAMCode -- End of preparing flash programming -- Read from flash cache (2048 bytes @ 0x08001000)
 -- Programming range 0x08001000 - 0x080017FF (001 Sector, 2 KB) -- Start of restoring -- Restoring RAMCode -- Restoring target memory -- Restore target -- Restore memory -- Restoring CPU registers -- End of restoring -- CPU_WriteMem(4 bytes @ 0xE000EDF0) -- CPU_WriteMem(4 bytes @ 0xE000EDFC) >0x35 TIF> -- CPU_WriteMem(4 bytes @ 0xE000ED0C) >0x0D TIF> >0x28 TIF> -- CPU_ReadMem(4 bytes @ 0xE000EDF0) -- CPU_ReadMem(4 bytes @ 0xE000EDF0) -- CPU_WriteMem(4 bytes @ 0xE000EDF0)
 -- CPU_WriteMem(4 bytes @ 0xE000EDFC) -- CPU is running -- CPU_ReadMem(4 bytes @ 0xE000EDF0) -- CPU_WriteMem(4 bytes @ 0xE0002000) -- CPU_ReadMem(4 bytes @ 0xE000EDFC) -- CPU_ReadMem(4 bytes @ 0xE0001000) (0331ms, 0984ms total)
T70E8 016:758 JLINK_ReadReg(R15 (PC))  returns 0x08000144 (0000ms, 0984ms total)
T70E8 016:758 JLINK_ReadReg(XPSR)  returns 0x01000000 (0000ms, 0984ms total)
T70E8 016:758 JLINK_ReadMemU32(0xE0001004, 0x0001 Items, ...) - Data: 00 00 00 00  returns 0x01 (0001ms, 0985ms total)
T70E8 016:761 JLINK_ReadMem (0x08000144, 0x003C Bytes, ...) -- CPU_ReadMem(64 bytes @ 0x08000140) -- Updating C cache (64 bytes @ 0x08000140) -- Read from C cache (60 bytes @ 0x08000144) - Data: 06 48 80 47 06 48 00 47 FE E7 FE E7 FE E7 FE E7 ...  returns 0x00 (0001ms, 0986ms total)
T8C74 018:020 JLINK_SetBPEx(Addr = 0x08001676, Type = 0xFFFFFFF2)  returns 0x0000000B (0000ms, 0986ms total)
T8C74 018:020 JLINK_SetBPEx(Addr = 0x080016CC, Type = 0xFFFFFFF2)  returns 0x0000000C (0000ms, 0986ms total)
T8C74 018:020 JLINK_SetBPEx(Addr = 0x08001682, Type = 0xFFFFFFF2)  returns 0x0000000D (0000ms, 0986ms total)
T8C74 018:020 JLINK_SetBPEx(Addr = 0x080016D8, Type = 0xFFFFFFF2)  returns 0x0000000E (0000ms, 0986ms total)
T8C74 018:020 JLINK_SetBPEx(Addr = 0x0800167A, Type = 0xFFFFFFF2)  returns 0x0000000F (0000ms, 0986ms total)
T8C74 018:020 JLINK_SetBPEx(Addr = 0x080016F2, Type = 0xFFFFFFF2)  returns 0x00000010 (0000ms, 0986ms total)
T8C74 018:020 JLINK_SetBPEx(Addr = 0x0800166E, Type = 0xFFFFFFF2) -- BP[0] @ 0x08001676 converted into FlashBP  returns 0x00000011 (0001ms, 0987ms total)
T8C74 018:021 JLINK_SetBPEx(Addr = 0x0800170C, Type = 0xFFFFFFF2) -- BP[1] @ 0x080016CC converted into FlashBP  returns 0x00000012 (0000ms, 0987ms total)
T8C74 018:021 JLINK_SetBPEx(Addr = 0x08001686, Type = 0xFFFFFFF2) -- BP[2] @ 0x08001682 converted into FlashBP  returns 0x00000013 (0000ms, 0987ms total)
T8C74 018:021 JLINK_SetBPEx(Addr = 0x08001722, Type = 0xFFFFFFF2) -- BP[3] @ 0x080016D8 converted into FlashBP  returns 0x00000014 (0000ms, 0987ms total)
T8C74 018:021 JLINK_Go() -- Read from C cache (2 bytes @ 0x08000144) -- Read from C cache (4 bytes @ 0x08000160) -- Simulated -- Read from C cache (2 bytes @ 0x08000146) -- Simulated -- CPU_ReadMem(64 bytes @ 0x08000200) -- Updating C cache (64 bytes @ 0x08000200) -- Read from C cache (2 bytes @ 0x08000210) -- CPU_WriteMem(8 bytes @ 0x20008E98) -- Simulated -- Read from C cache (2 bytes @ 0x08000212) -- CPU_ReadMem(64 bytes @ 0x08000280) -- Updating C cache (64 bytes @ 0x08000280)
 -- Read from C cache (4 bytes @ 0x080002BC) -- Simulated -- Read from C cache (2 bytes @ 0x08000214) -- Not simulated -- Start of preparing flash programming -- Calculating RAM usage -- RAM usage = 6076 Bytes -- Preserving CPU registers -- Preparing memory -- Determining CPU clock frequency -- Preparing target -- Preserving target RAM temporarily used for programming -- Downloading RAMCode -- Not first flash download, checking target RAM skipped -- Preparing RAMCode -- End of preparing flash programming
 -- Read from flash cache (2048 bytes @ 0x08001000) -- Programming range 0x08001000 - 0x080017FF (001 Sector, 2 KB) -- Start of restoring -- Restoring RAMCode -- Restoring target memory -- Restore target -- Restore memory -- Restoring CPU registers -- End of restoring -- CPU_WriteMem(4 bytes @ 0xE0002000) -- CPU_WriteMem(4 bytes @ 0xE0002000) -- CPU_WriteMem(4 bytes @ 0xE0002000) -- CPU_WriteMem(4 bytes @ 0xE0002000) -- CPU_WriteMem(4 bytes @ 0xE0002000) -- CPU_WriteMem(4 bytes @ 0xE0002000)
 -- CPU_ReadMem(4 bytes @ 0xE0001000) -- CPU_WriteMem(4 bytes @ 0xE0002008) -- CPU_WriteMem(4 bytes @ 0xE000200C) -- CPU_WriteMem(4 bytes @ 0xE0002010) -- CPU_WriteMem(4 bytes @ 0xE0002014) -- CPU_WriteMem(4 bytes @ 0xE0002018) -- CPU_WriteMem(4 bytes @ 0xE000201C) (0278ms, 1265ms total)
T8C74 018:400 JLINK_IsHalted()  returns FALSE (0000ms, 1265ms total)
T8C74 018:501 JLINK_IsHalted()  returns TRUE (0003ms, 1268ms total)
T8C74 018:504 JLINK_Halt()  returns 0x00 (0000ms, 1265ms total)
T8C74 018:504 JLINK_IsHalted()  returns TRUE (0000ms, 1265ms total)
T8C74 018:504 JLINK_IsHalted()  returns TRUE (0000ms, 1265ms total)
T8C74 018:504 JLINK_IsHalted()  returns TRUE (0000ms, 1265ms total)
T8C74 018:504 JLINK_ReadReg(R15 (PC))  returns 0x0800166E (0000ms, 1265ms total)
T8C74 018:504 JLINK_ReadReg(XPSR)  returns 0x01000000 (0000ms, 1265ms total)
T8C74 018:504 JLINK_ClrBPEx(BPHandle = 0x0000000B)  returns 0x00 (0000ms, 1265ms total)
T8C74 018:504 JLINK_ClrBPEx(BPHandle = 0x0000000C)  returns 0x00 (0001ms, 1266ms total)
T8C74 018:505 JLINK_ClrBPEx(BPHandle = 0x0000000D)  returns 0x00 (0000ms, 1266ms total)
T8C74 018:505 JLINK_ClrBPEx(BPHandle = 0x0000000E)  returns 0x00 (0000ms, 1266ms total)
T8C74 018:505 JLINK_ClrBPEx(BPHandle = 0x0000000F)  returns 0x00 (0000ms, 1266ms total)
T8C74 018:505 JLINK_ClrBPEx(BPHandle = 0x00000010)  returns 0x00 (0000ms, 1266ms total)
T8C74 018:505 JLINK_ClrBPEx(BPHandle = 0x00000011)  returns 0x00 (0000ms, 1266ms total)
T8C74 018:505 JLINK_ClrBPEx(BPHandle = 0x00000012)  returns 0x00 (0000ms, 1266ms total)
T8C74 018:505 JLINK_ClrBPEx(BPHandle = 0x00000013)  returns 0x00 (0000ms, 1266ms total)
T8C74 018:505 JLINK_ClrBPEx(BPHandle = 0x00000014)  returns 0x00 (0000ms, 1266ms total)
T8C74 018:505 JLINK_ReadMemU32(0xE000ED30, 0x0001 Items, ...) -- CPU_ReadMem(4 bytes @ 0xE000ED30) - Data: 03 00 00 00  returns 0x01 (0001ms, 1267ms total)
T8C74 018:506 JLINK_ReadMemU32(0xE0001028, 0x0001 Items, ...) -- CPU_ReadMem(4 bytes @ 0xE0001028) - Data: 00 00 00 00  returns 0x01 (0000ms, 1267ms total)
T8C74 018:507 JLINK_ReadMemU32(0xE0001038, 0x0001 Items, ...) -- CPU_ReadMem(4 bytes @ 0xE0001038) - Data: 00 02 00 00  returns 0x01 (0000ms, 1268ms total)
T8C74 018:507 JLINK_ReadMemU32(0xE0001048, 0x0001 Items, ...) -- CPU_ReadMem(4 bytes @ 0xE0001048) - Data: 00 00 00 00  returns 0x01 (0001ms, 1269ms total)
T8C74 018:508 JLINK_ReadMemU32(0xE0001058, 0x0001 Items, ...) -- CPU_ReadMem(4 bytes @ 0xE0001058) - Data: 00 00 00 00  returns 0x01 (0001ms, 1270ms total)
T8C74 018:509 JLINK_ReadReg(R0)  returns 0x00000000 (0000ms, 1270ms total)
T8C74 018:509 JLINK_ReadReg(R1)  returns 0x20005868 (0000ms, 1270ms total)
T8C74 018:509 JLINK_ReadReg(R2)  returns 0x02020202 (0000ms, 1270ms total)
T8C74 018:509 JLINK_ReadReg(R3)  returns 0x03030303 (0000ms, 1270ms total)
T8C74 018:509 JLINK_ReadReg(R4)  returns 0x04040404 (0000ms, 1270ms total)
T8C74 018:509 JLINK_ReadReg(R5)  returns 0x40011800 (0000ms, 1270ms total)
T8C74 018:509 JLINK_ReadReg(R6)  returns 0x06060606 (0000ms, 1270ms total)
T8C74 018:509 JLINK_ReadReg(R7)  returns 0x07070707 (0000ms, 1270ms total)
T8C74 018:509 JLINK_ReadReg(R8)  returns 0x08080808 (0000ms, 1270ms total)
T8C74 018:509 JLINK_ReadReg(R9)  returns 0x09090909 (0000ms, 1270ms total)
T8C74 018:509 JLINK_ReadReg(R10)  returns 0x10101010 (0000ms, 1270ms total)
T8C74 018:509 JLINK_ReadReg(R11)  returns 0x11111111 (0000ms, 1270ms total)
T8C74 018:509 JLINK_ReadReg(R12)  returns 0x12121212 (0000ms, 1270ms total)
T8C74 018:509 JLINK_ReadReg(R13 (SP))  returns 0x20005978 (0000ms, 1270ms total)
T8C74 018:509 JLINK_ReadReg(R14)  returns 0x08006421 (0000ms, 1270ms total)
T8C74 018:509 JLINK_ReadReg(R15 (PC))  returns 0x0800166E (0000ms, 1270ms total)
T8C74 018:509 JLINK_ReadReg(XPSR)  returns 0x01000000 (0000ms, 1270ms total)
T8C74 018:509 JLINK_ReadReg(MSP)  returns 0x20007748 (0000ms, 1270ms total)
T8C74 018:509 JLINK_ReadReg(PSP)  returns 0x20005978 (0000ms, 1270ms total)
T8C74 018:509 JLINK_ReadReg(CFBP)  returns 0x02000000 (0000ms, 1270ms total)
T70E8 018:510 JLINK_ReadMem (0x20005984, 0x0004 Bytes, ...) -- CPU_ReadMem(64 bytes @ 0x20005980) -- Updating C cache (64 bytes @ 0x20005980) -- Read from C cache (4 bytes @ 0x20005984) - Data: 21 64 00 08  returns 0x00 (0001ms, 1271ms total)
T70E8 018:511 JLINK_ReadMem (0x20005980, 0x0002 Bytes, ...) -- Read from C cache (2 bytes @ 0x20005980) - Data: 03 03  returns 0x00 (0000ms, 1271ms total)
T70E8 018:511 JLINK_ReadMem (0x00000000, 0x0004 Bytes, ...) -- CPU_ReadMem(4 bytes @ 0x00000004) -- CPU_ReadMem(64 bytes @ 0x08000000) -- Updating C cache (64 bytes @ 0x08000000) -- Read from C cache (4 bytes @ 0x08000000) - Data: A0 8E 00 20  returns 0x00 (0002ms, 1273ms total)
T70E8 018:514 JLINK_ReadMemU32(0xE0001004, 0x0001 Items, ...) -- CPU_ReadMem(4 bytes @ 0xE0001004) - Data: 10 D1 D4 00  returns 0x01 (0000ms, 1273ms total)
T70E8 018:517 JLINK_ReadMem (0x0800166E, 0x0002 Bytes, ...) -- Read from flash cache (2 bytes @ 0x0800166E) - Data: DF F8  returns 0x00 (0000ms, 1273ms total)
T70E8 018:517 JLINK_ReadMem (0x08001670, 0x003C Bytes, ...) -- Read from flash cache (60 bytes @ 0x08001670) -- Merging zombie BP[0]: 0xF44F @ 0x08001676 -- Merging zombie BP[2]: 0xF44F @ 0x08001682 - Data: F8 B3 4F F4 FA 74 4F F4 FC 66 4B F6 40 47 4F F4 ...  returns 0x00 (0000ms, 1273ms total)
T8C74 020:316 JLINK_Step() -- Read from flash cache (2 bytes @ 0x0800166E) -- Read from flash cache (2 bytes @ 0x08001670) -- Not simulated -- CPU_WriteMem(4 bytes @ 0xE0002008) -- CPU_WriteMem(4 bytes @ 0xE000200C) -- CPU_WriteMem(4 bytes @ 0xE0002010) -- CPU_WriteMem(4 bytes @ 0xE0002014) -- CPU_WriteMem(4 bytes @ 0xE0002018) -- CPU_WriteMem(4 bytes @ 0xE000201C)  returns 0x00 (0007ms, 1280ms total)
T8C74 020:323 JLINK_ReadReg(R15 (PC))  returns 0x08001672 (0000ms, 1280ms total)
T8C74 020:323 JLINK_ReadReg(XPSR)  returns 0x01000000 (0000ms, 1280ms total)
T8C74 020:323 JLINK_SetBPEx(Addr = 0x08001676, Type = 0xFFFFFFF2)  returns 0x00000015 (0000ms, 1280ms total)
T8C74 020:323 JLINK_SetBPEx(Addr = 0x080016CC, Type = 0xFFFFFFF2)  returns 0x00000016 (0000ms, 1280ms total)
T8C74 020:323 JLINK_SetBPEx(Addr = 0x08001682, Type = 0xFFFFFFF2)  returns 0x00000017 (0000ms, 1280ms total)
T8C74 020:323 JLINK_SetBPEx(Addr = 0x080016D8, Type = 0xFFFFFFF2)  returns 0x00000018 (0000ms, 1280ms total)
T8C74 020:323 JLINK_SetBPEx(Addr = 0x0800167A, Type = 0xFFFFFFF2)  returns 0x00000019 (0000ms, 1280ms total)
T8C74 020:323 JLINK_SetBPEx(Addr = 0x080016F2, Type = 0xFFFFFFF2)  returns 0x0000001A (0000ms, 1280ms total)
T8C74 020:323 JLINK_SetBPEx(Addr = 0x0800166E, Type = 0xFFFFFFF2)  returns 0x0000001B (0000ms, 1280ms total)
T8C74 020:323 JLINK_SetBPEx(Addr = 0x0800170C, Type = 0xFFFFFFF2)  returns 0x0000001C (0000ms, 1280ms total)
T8C74 020:323 JLINK_SetBPEx(Addr = 0x08001686, Type = 0xFFFFFFF2)  returns 0x0000001D (0000ms, 1280ms total)
T8C74 020:323 JLINK_SetBPEx(Addr = 0x08001722, Type = 0xFFFFFFF2)  returns 0x0000001E (0000ms, 1280ms total)
T8C74 020:323 JLINK_Go() -- CPU_WriteMem(4 bytes @ 0xE0002000) -- CPU_WriteMem(4 bytes @ 0xE0002000) -- CPU_WriteMem(4 bytes @ 0xE0002000) -- CPU_WriteMem(4 bytes @ 0xE0002000) -- CPU_WriteMem(4 bytes @ 0xE0002000) -- CPU_WriteMem(4 bytes @ 0xE0002000) -- CPU_ReadMem(4 bytes @ 0xE0001000) -- CPU_WriteMem(4 bytes @ 0xE0002008) -- CPU_WriteMem(4 bytes @ 0xE000200C) -- CPU_WriteMem(4 bytes @ 0xE0002010) -- CPU_WriteMem(4 bytes @ 0xE0002014) -- CPU_WriteMem(4 bytes @ 0xE0002018)
 -- CPU_WriteMem(4 bytes @ 0xE000201C) (0007ms, 1287ms total)
T8C74 020:431 JLINK_IsHalted()  returns TRUE (0003ms, 1290ms total)
T8C74 020:434 JLINK_Halt()  returns 0x00 (0000ms, 1287ms total)
T8C74 020:434 JLINK_IsHalted()  returns TRUE (0000ms, 1287ms total)
T8C74 020:434 JLINK_IsHalted()  returns TRUE (0000ms, 1287ms total)
T8C74 020:434 JLINK_IsHalted()  returns TRUE (0000ms, 1287ms total)
T8C74 020:434 JLINK_ReadReg(R15 (PC))  returns 0x08001676 (0000ms, 1287ms total)
T8C74 020:434 JLINK_ReadReg(XPSR)  returns 0x01000000 (0000ms, 1287ms total)
T8C74 020:434 JLINK_ClrBPEx(BPHandle = 0x00000015)  returns 0x00 (0000ms, 1287ms total)
T8C74 020:434 JLINK_ClrBPEx(BPHandle = 0x00000016)  returns 0x00 (0000ms, 1287ms total)
T8C74 020:434 JLINK_ClrBPEx(BPHandle = 0x00000017)  returns 0x00 (0000ms, 1287ms total)
T8C74 020:434 JLINK_ClrBPEx(BPHandle = 0x00000018)  returns 0x00 (0000ms, 1287ms total)
T8C74 020:434 JLINK_ClrBPEx(BPHandle = 0x00000019)  returns 0x00 (0000ms, 1287ms total)
T8C74 020:435 JLINK_ClrBPEx(BPHandle = 0x0000001A)  returns 0x00 (0000ms, 1287ms total)
T8C74 020:435 JLINK_ClrBPEx(BPHandle = 0x0000001B)  returns 0x00 (0000ms, 1287ms total)
T8C74 020:435 JLINK_ClrBPEx(BPHandle = 0x0000001C)  returns 0x00 (0000ms, 1287ms total)
T8C74 020:435 JLINK_ClrBPEx(BPHandle = 0x0000001D)  returns 0x00 (0000ms, 1287ms total)
T8C74 020:435 JLINK_ClrBPEx(BPHandle = 0x0000001E)  returns 0x00 (0000ms, 1287ms total)
T8C74 020:435 JLINK_ReadMemU32(0xE000ED30, 0x0001 Items, ...) -- CPU_ReadMem(4 bytes @ 0xE000ED30) - Data: 03 00 00 00  returns 0x01 (0000ms, 1287ms total)
T8C74 020:435 JLINK_ReadMemU32(0xE0001028, 0x0001 Items, ...) -- CPU_ReadMem(4 bytes @ 0xE0001028) - Data: 00 00 00 00  returns 0x01 (0001ms, 1288ms total)
T8C74 020:436 JLINK_ReadMemU32(0xE0001038, 0x0001 Items, ...) -- CPU_ReadMem(4 bytes @ 0xE0001038) - Data: 00 02 00 00  returns 0x01 (0001ms, 1289ms total)
T8C74 020:437 JLINK_ReadMemU32(0xE0001048, 0x0001 Items, ...) -- CPU_ReadMem(4 bytes @ 0xE0001048) - Data: 00 00 00 00  returns 0x01 (0000ms, 1289ms total)
T8C74 020:437 JLINK_ReadMemU32(0xE0001058, 0x0001 Items, ...) -- CPU_ReadMem(4 bytes @ 0xE0001058) - Data: 00 00 00 00  returns 0x01 (0001ms, 1290ms total)
T8C74 020:438 JLINK_ReadReg(R0)  returns 0x00000000 (0000ms, 1290ms total)
T8C74 020:438 JLINK_ReadReg(R1)  returns 0x20005868 (0000ms, 1290ms total)
T8C74 020:438 JLINK_ReadReg(R2)  returns 0x02020202 (0000ms, 1290ms total)
T8C74 020:438 JLINK_ReadReg(R3)  returns 0x03030303 (0000ms, 1290ms total)
T8C74 020:438 JLINK_ReadReg(R4)  returns 0x000001F4 (0000ms, 1290ms total)
T8C74 020:438 JLINK_ReadReg(R5)  returns 0x40011800 (0000ms, 1290ms total)
T8C74 020:438 JLINK_ReadReg(R6)  returns 0x06060606 (0000ms, 1290ms total)
T8C74 020:438 JLINK_ReadReg(R7)  returns 0x07070707 (0000ms, 1290ms total)
T8C74 020:438 JLINK_ReadReg(R8)  returns 0x08080808 (0000ms, 1290ms total)
T8C74 020:438 JLINK_ReadReg(R9)  returns 0x09090909 (0000ms, 1290ms total)
T8C74 020:438 JLINK_ReadReg(R10)  returns 0x10101010 (0000ms, 1290ms total)
T8C74 020:438 JLINK_ReadReg(R11)  returns 0x00A52A2A (0000ms, 1290ms total)
T8C74 020:438 JLINK_ReadReg(R12)  returns 0x12121212 (0000ms, 1290ms total)
T8C74 020:438 JLINK_ReadReg(R13 (SP))  returns 0x20005978 (0001ms, 1291ms total)
T8C74 020:439 JLINK_ReadReg(R14)  returns 0x08006421 (0000ms, 1291ms total)
T8C74 020:439 JLINK_ReadReg(R15 (PC))  returns 0x08001676 (0000ms, 1291ms total)
T8C74 020:439 JLINK_ReadReg(XPSR)  returns 0x01000000 (0000ms, 1291ms total)
T8C74 020:439 JLINK_ReadReg(MSP)  returns 0x20007748 (0000ms, 1291ms total)
T8C74 020:439 JLINK_ReadReg(PSP)  returns 0x20005978 (0000ms, 1291ms total)
T8C74 020:439 JLINK_ReadReg(CFBP)  returns 0x02000000 (0000ms, 1291ms total)
T70E8 020:439 JLINK_ReadMem (0x20005984, 0x0004 Bytes, ...) -- CPU_ReadMem(64 bytes @ 0x20005980) -- Updating C cache (64 bytes @ 0x20005980) -- Read from C cache (4 bytes @ 0x20005984) - Data: 21 64 00 08  returns 0x00 (0001ms, 1292ms total)
T70E8 020:440 JLINK_ReadMem (0x20005980, 0x0002 Bytes, ...) -- Read from C cache (2 bytes @ 0x20005980) - Data: 03 03  returns 0x00 (0000ms, 1292ms total)
T70E8 020:440 JLINK_ReadMem (0x00000000, 0x0004 Bytes, ...) -- CPU_ReadMem(4 bytes @ 0x00000004) -- CPU_ReadMem(64 bytes @ 0x08000000) -- Updating C cache (64 bytes @ 0x08000000) -- Read from C cache (4 bytes @ 0x08000000) - Data: A0 8E 00 20  returns 0x00 (0002ms, 1294ms total)
T70E8 020:442 JLINK_ReadMemU32(0xE0001004, 0x0001 Items, ...) -- CPU_ReadMem(4 bytes @ 0xE0001004) - Data: 16 D1 D4 00  returns 0x01 (0001ms, 1295ms total)
T70E8 020:446 JLINK_ReadMem (0x08001676, 0x0002 Bytes, ...) -- Merging zombie BP[0]: 0xF44F @ 0x08001676 -- Merging zombie BP[0]: 0xF44F @ 0x08001676 - Data: 4F F4  returns 0x00 (0000ms, 1295ms total)
T70E8 020:446 JLINK_ReadMem (0x08001678, 0x003C Bytes, ...) -- Read from flash cache (60 bytes @ 0x08001678) -- Merging zombie BP[2]: 0xF44F @ 0x08001682 - Data: FC 66 4B F6 40 47 4F F4 A0 79 4F F4 78 4A 4F F0 ...  returns 0x00 (0000ms, 1295ms total)
T8C74 024:269 JLINK_Step() -- Merging zombie BP[0]: 0xF44F @ 0x08001676 -- Merging zombie BP[0]: 0xF44F @ 0x08001676 -- Read from flash cache (2 bytes @ 0x08001678) -- Simulated  returns 0x00 (0000ms, 1295ms total)
T8C74 024:269 JLINK_ReadReg(R15 (PC))  returns 0x0800167A (0001ms, 1296ms total)
T8C74 024:270 JLINK_ReadReg(XPSR)  returns 0x01000000 (0000ms, 1296ms total)
T8C74 024:270 JLINK_ReadReg(R0)  returns 0x00000000 (0000ms, 1296ms total)
T8C74 024:270 JLINK_ReadReg(R1)  returns 0x20005868 (0000ms, 1296ms total)
T8C74 024:270 JLINK_ReadReg(R2)  returns 0x02020202 (0000ms, 1296ms total)
T8C74 024:270 JLINK_ReadReg(R3)  returns 0x03030303 (0000ms, 1296ms total)
T8C74 024:270 JLINK_ReadReg(R4)  returns 0x000001F4 (0000ms, 1296ms total)
T8C74 024:270 JLINK_ReadReg(R5)  returns 0x40011800 (0000ms, 1296ms total)
T8C74 024:270 JLINK_ReadReg(R6)  returns 0x000007E0 (0000ms, 1296ms total)
T8C74 024:270 JLINK_ReadReg(R7)  returns 0x07070707 (0000ms, 1296ms total)
T8C74 024:270 JLINK_ReadReg(R8)  returns 0x08080808 (0000ms, 1296ms total)
T8C74 024:270 JLINK_ReadReg(R9)  returns 0x09090909 (0000ms, 1296ms total)
T8C74 024:270 JLINK_ReadReg(R10)  returns 0x10101010 (0000ms, 1296ms total)
T8C74 024:270 JLINK_ReadReg(R11)  returns 0x00A52A2A (0000ms, 1296ms total)
T8C74 024:270 JLINK_ReadReg(R12)  returns 0x12121212 (0000ms, 1296ms total)
T8C74 024:270 JLINK_ReadReg(R13 (SP))  returns 0x20005978 (0000ms, 1296ms total)
T8C74 024:270 JLINK_ReadReg(R14)  returns 0x08006421 (0000ms, 1296ms total)
T8C74 024:270 JLINK_ReadReg(R15 (PC))  returns 0x0800167A (0000ms, 1296ms total)
T8C74 024:270 JLINK_ReadReg(XPSR)  returns 0x01000000 (0000ms, 1296ms total)
T8C74 024:270 JLINK_ReadReg(MSP)  returns 0x20007748 (0000ms, 1296ms total)
T8C74 024:270 JLINK_ReadReg(PSP)  returns 0x20005978 (0001ms, 1297ms total)
T8C74 024:271 JLINK_ReadReg(CFBP)  returns 0x02000000 (0000ms, 1297ms total)
T70E8 024:275 JLINK_ReadMem (0x20005984, 0x0004 Bytes, ...) -- Read from C cache (4 bytes @ 0x20005984) - Data: 21 64 00 08  returns 0x00 (0000ms, 1297ms total)
T70E8 024:275 JLINK_ReadMem (0x20005980, 0x0002 Bytes, ...) -- Read from C cache (2 bytes @ 0x20005980) - Data: 03 03  returns 0x00 (0000ms, 1297ms total)
T70E8 024:275 JLINK_ReadMem (0x00000000, 0x0004 Bytes, ...) -- Read from C cache (4 bytes @ 0x08000000) - Data: A0 8E 00 20  returns 0x00 (0000ms, 1297ms total)
T70E8 024:275 JLINK_ReadMemU32(0xE0001004, 0x0001 Items, ...) - Data: 17 D1 D4 00  returns 0x01 (0000ms, 1297ms total)
T70E8 024:278 JLINK_ReadMem (0x0800167A, 0x0002 Bytes, ...) -- Read from flash cache (2 bytes @ 0x0800167A) - Data: 4B F6  returns 0x00 (0000ms, 1297ms total)
T70E8 024:278 JLINK_ReadMem (0x0800167C, 0x003C Bytes, ...) -- Read from flash cache (60 bytes @ 0x0800167C) -- Merging zombie BP[2]: 0xF44F @ 0x08001682 - Data: 40 47 4F F4 A0 79 4F F4 78 4A 4F F0 10 08 02 AA ...  returns 0x00 (0000ms, 1297ms total)
T8C74 026:189 JLINK_Step() -- Read from flash cache (2 bytes @ 0x0800167A) -- Read from flash cache (2 bytes @ 0x0800167C) -- Simulated  returns 0x00 (0000ms, 1297ms total)
T8C74 026:189 JLINK_ReadReg(R15 (PC))  returns 0x0800167E (0000ms, 1297ms total)
T8C74 026:189 JLINK_ReadReg(XPSR)  returns 0x01000000 (0000ms, 1297ms total)
T8C74 026:189 JLINK_SetBPEx(Addr = 0x08001676, Type = 0xFFFFFFF2)  returns 0x0000001F (0000ms, 1297ms total)
T8C74 026:189 JLINK_SetBPEx(Addr = 0x080016CC, Type = 0xFFFFFFF2)  returns 0x00000020 (0001ms, 1298ms total)
T8C74 026:190 JLINK_SetBPEx(Addr = 0x08001682, Type = 0xFFFFFFF2)  returns 0x00000021 (0000ms, 1298ms total)
T8C74 026:190 JLINK_SetBPEx(Addr = 0x080016D8, Type = 0xFFFFFFF2)  returns 0x00000022 (0000ms, 1298ms total)
T8C74 026:190 JLINK_SetBPEx(Addr = 0x0800167A, Type = 0xFFFFFFF2)  returns 0x00000023 (0000ms, 1298ms total)
T8C74 026:190 JLINK_SetBPEx(Addr = 0x080016F2, Type = 0xFFFFFFF2)  returns 0x00000024 (0000ms, 1298ms total)
T8C74 026:190 JLINK_SetBPEx(Addr = 0x0800166E, Type = 0xFFFFFFF2)  returns 0x00000025 (0000ms, 1298ms total)
T8C74 026:190 JLINK_SetBPEx(Addr = 0x0800170C, Type = 0xFFFFFFF2)  returns 0x00000026 (0000ms, 1298ms total)
T8C74 026:190 JLINK_SetBPEx(Addr = 0x08001686, Type = 0xFFFFFFF2)  returns 0x00000027 (0000ms, 1298ms total)
T8C74 026:190 JLINK_SetBPEx(Addr = 0x08001722, Type = 0xFFFFFFF2)  returns 0x00000028 (0000ms, 1298ms total)
T8C74 026:190 JLINK_Go() -- CPU_WriteMem(4 bytes @ 0xE0002000) -- CPU_WriteMem(4 bytes @ 0xE0002000) -- CPU_WriteMem(4 bytes @ 0xE0002000) -- CPU_WriteMem(4 bytes @ 0xE0002000) -- CPU_WriteMem(4 bytes @ 0xE0002000) -- CPU_WriteMem(4 bytes @ 0xE0002000) -- CPU_ReadMem(4 bytes @ 0xE0001000) -- CPU_WriteMem(4 bytes @ 0xE0001004) (0005ms, 1303ms total)
T8C74 026:296 JLINK_IsHalted()  returns TRUE (0003ms, 1306ms total)
T8C74 026:299 JLINK_Halt()  returns 0x00 (0000ms, 1303ms total)
T8C74 026:299 JLINK_IsHalted()  returns TRUE (0000ms, 1303ms total)
T8C74 026:299 JLINK_IsHalted()  returns TRUE (0000ms, 1303ms total)
T8C74 026:299 JLINK_IsHalted()  returns TRUE (0000ms, 1303ms total)
T8C74 026:299 JLINK_ReadReg(R15 (PC))  returns 0x08001682 (0000ms, 1303ms total)
T8C74 026:299 JLINK_ReadReg(XPSR)  returns 0x01000000 (0000ms, 1303ms total)
T8C74 026:299 JLINK_ClrBPEx(BPHandle = 0x0000001F)  returns 0x00 (0000ms, 1303ms total)
T8C74 026:300 JLINK_ClrBPEx(BPHandle = 0x00000020)  returns 0x00 (0000ms, 1304ms total)
T8C74 026:300 JLINK_ClrBPEx(BPHandle = 0x00000021)  returns 0x00 (0000ms, 1304ms total)
T8C74 026:300 JLINK_ClrBPEx(BPHandle = 0x00000022)  returns 0x00 (0000ms, 1304ms total)
T8C74 026:300 JLINK_ClrBPEx(BPHandle = 0x00000023)  returns 0x00 (0000ms, 1304ms total)
T8C74 026:300 JLINK_ClrBPEx(BPHandle = 0x00000024)  returns 0x00 (0000ms, 1304ms total)
T8C74 026:300 JLINK_ClrBPEx(BPHandle = 0x00000025)  returns 0x00 (0000ms, 1304ms total)
T8C74 026:300 JLINK_ClrBPEx(BPHandle = 0x00000026)  returns 0x00 (0000ms, 1304ms total)
T8C74 026:300 JLINK_ClrBPEx(BPHandle = 0x00000027)  returns 0x00 (0000ms, 1304ms total)
T8C74 026:300 JLINK_ClrBPEx(BPHandle = 0x00000028)  returns 0x00 (0000ms, 1304ms total)
T8C74 026:300 JLINK_ReadMemU32(0xE000ED30, 0x0001 Items, ...) -- CPU_ReadMem(4 bytes @ 0xE000ED30) - Data: 03 00 00 00  returns 0x01 (0001ms, 1305ms total)
T8C74 026:301 JLINK_ReadMemU32(0xE0001028, 0x0001 Items, ...) -- CPU_ReadMem(4 bytes @ 0xE0001028) - Data: 00 00 00 00  returns 0x01 (0000ms, 1305ms total)
T8C74 026:301 JLINK_ReadMemU32(0xE0001038, 0x0001 Items, ...) -- CPU_ReadMem(4 bytes @ 0xE0001038) - Data: 00 02 00 00  returns 0x01 (0001ms, 1306ms total)
T8C74 026:302 JLINK_ReadMemU32(0xE0001048, 0x0001 Items, ...) -- CPU_ReadMem(4 bytes @ 0xE0001048) - Data: 00 00 00 00  returns 0x01 (0001ms, 1307ms total)
T8C74 026:303 JLINK_ReadMemU32(0xE0001058, 0x0001 Items, ...) -- CPU_ReadMem(4 bytes @ 0xE0001058) - Data: 00 00 00 00  returns 0x01 (0000ms, 1307ms total)
T8C74 026:303 JLINK_ReadReg(R0)  returns 0x00000000 (0000ms, 1307ms total)
T8C74 026:304 JLINK_ReadReg(R1)  returns 0x20005868 (0000ms, 1308ms total)
T8C74 026:304 JLINK_ReadReg(R2)  returns 0x02020202 (0000ms, 1308ms total)
T8C74 026:304 JLINK_ReadReg(R3)  returns 0x03030303 (0000ms, 1308ms total)
T8C74 026:304 JLINK_ReadReg(R4)  returns 0x000001F4 (0000ms, 1308ms total)
T8C74 026:304 JLINK_ReadReg(R5)  returns 0x40011800 (0000ms, 1308ms total)
T8C74 026:304 JLINK_ReadReg(R6)  returns 0x000007E0 (0000ms, 1308ms total)
T8C74 026:304 JLINK_ReadReg(R7)  returns 0x0000BC40 (0000ms, 1308ms total)
T8C74 026:304 JLINK_ReadReg(R8)  returns 0x08080808 (0000ms, 1308ms total)
T8C74 026:304 JLINK_ReadReg(R9)  returns 0x00000140 (0000ms, 1308ms total)
T8C74 026:304 JLINK_ReadReg(R10)  returns 0x10101010 (0000ms, 1308ms total)
T8C74 026:304 JLINK_ReadReg(R11)  returns 0x00A52A2A (0000ms, 1308ms total)
T8C74 026:304 JLINK_ReadReg(R12)  returns 0x12121212 (0000ms, 1308ms total)
T8C74 026:304 JLINK_ReadReg(R13 (SP))  returns 0x20005978 (0000ms, 1308ms total)
T8C74 026:304 JLINK_ReadReg(R14)  returns 0x08006421 (0000ms, 1308ms total)
T8C74 026:304 JLINK_ReadReg(R15 (PC))  returns 0x08001682 (0000ms, 1308ms total)
T8C74 026:304 JLINK_ReadReg(XPSR)  returns 0x01000000 (0000ms, 1308ms total)
T8C74 026:304 JLINK_ReadReg(MSP)  returns 0x20007748 (0000ms, 1308ms total)
T8C74 026:304 JLINK_ReadReg(PSP)  returns 0x20005978 (0000ms, 1308ms total)
T8C74 026:304 JLINK_ReadReg(CFBP)  returns 0x02000000 (0000ms, 1308ms total)
T70E8 026:304 JLINK_ReadMem (0x20005984, 0x0004 Bytes, ...) -- CPU_ReadMem(64 bytes @ 0x20005980) -- Updating C cache (64 bytes @ 0x20005980) -- Read from C cache (4 bytes @ 0x20005984) - Data: 21 64 00 08  returns 0x00 (0002ms, 1310ms total)
T70E8 026:306 JLINK_ReadMem (0x20005980, 0x0002 Bytes, ...) -- Read from C cache (2 bytes @ 0x20005980) - Data: 03 03  returns 0x00 (0000ms, 1310ms total)
T70E8 026:306 JLINK_ReadMem (0x00000000, 0x0004 Bytes, ...) -- CPU_ReadMem(4 bytes @ 0x00000004) -- CPU_ReadMem(64 bytes @ 0x08000000) -- Updating C cache (64 bytes @ 0x08000000) -- Read from C cache (4 bytes @ 0x08000000) - Data: A0 8E 00 20  returns 0x00 (0002ms, 1312ms total)
T70E8 026:308 JLINK_ReadMemU32(0xE0001004, 0x0001 Items, ...) -- CPU_ReadMem(4 bytes @ 0xE0001004) - Data: 19 D1 D4 00  returns 0x01 (0000ms, 1312ms total)
T70E8 026:311 JLINK_ReadMem (0x08001682, 0x0002 Bytes, ...) -- Merging zombie BP[2]: 0xF44F @ 0x08001682 -- Merging zombie BP[2]: 0xF44F @ 0x08001682 - Data: 4F F4  returns 0x00 (0000ms, 1312ms total)
T70E8 026:311 JLINK_ReadMem (0x08001684, 0x003C Bytes, ...) -- Read from flash cache (60 bytes @ 0x08001684) - Data: 78 4A 4F F0 10 08 02 AA 00 21 20 46 05 F0 6A F8 ...  returns 0x00 (0000ms, 1312ms total)
T8C74 027:316 JLINK_Step() -- Merging zombie BP[2]: 0xF44F @ 0x08001682 -- Merging zombie BP[2]: 0xF44F @ 0x08001682 -- Read from flash cache (2 bytes @ 0x08001684) -- Simulated  returns 0x00 (0001ms, 1313ms total)
T8C74 027:317 JLINK_ReadReg(R15 (PC))  returns 0x08001686 (0000ms, 1313ms total)
T8C74 027:317 JLINK_ReadReg(XPSR)  returns 0x01000000 (0000ms, 1313ms total)
T8C74 027:317 JLINK_ReadReg(R0)  returns 0x00000000 (0000ms, 1313ms total)
T8C74 027:317 JLINK_ReadReg(R1)  returns 0x20005868 (0000ms, 1313ms total)
T8C74 027:317 JLINK_ReadReg(R2)  returns 0x02020202 (0000ms, 1313ms total)
T8C74 027:317 JLINK_ReadReg(R3)  returns 0x03030303 (0000ms, 1313ms total)
T8C74 027:317 JLINK_ReadReg(R4)  returns 0x000001F4 (0000ms, 1313ms total)
T8C74 027:317 JLINK_ReadReg(R5)  returns 0x40011800 (0000ms, 1313ms total)
T8C74 027:317 JLINK_ReadReg(R6)  returns 0x000007E0 (0000ms, 1313ms total)
T8C74 027:317 JLINK_ReadReg(R7)  returns 0x0000BC40 (0000ms, 1313ms total)
T8C74 027:317 JLINK_ReadReg(R8)  returns 0x08080808 (0000ms, 1313ms total)
T8C74 027:317 JLINK_ReadReg(R9)  returns 0x00000140 (0000ms, 1313ms total)
T8C74 027:317 JLINK_ReadReg(R10)  returns 0x0000F800 (0000ms, 1313ms total)
T8C74 027:317 JLINK_ReadReg(R11)  returns 0x00A52A2A (0000ms, 1313ms total)
T8C74 027:317 JLINK_ReadReg(R12)  returns 0x12121212 (0000ms, 1313ms total)
T8C74 027:317 JLINK_ReadReg(R13 (SP))  returns 0x20005978 (0000ms, 1313ms total)
T8C74 027:317 JLINK_ReadReg(R14)  returns 0x08006421 (0000ms, 1313ms total)
T8C74 027:317 JLINK_ReadReg(R15 (PC))  returns 0x08001686 (0000ms, 1313ms total)
T8C74 027:317 JLINK_ReadReg(XPSR)  returns 0x01000000 (0000ms, 1313ms total)
T8C74 027:317 JLINK_ReadReg(MSP)  returns 0x20007748 (0000ms, 1313ms total)
T8C74 027:317 JLINK_ReadReg(PSP)  returns 0x20005978 (0000ms, 1313ms total)
T8C74 027:317 JLINK_ReadReg(CFBP)  returns 0x02000000 (0000ms, 1313ms total)
T70E8 027:321 JLINK_ReadMem (0x20005984, 0x0004 Bytes, ...) -- Read from C cache (4 bytes @ 0x20005984) - Data: 21 64 00 08  returns 0x00 (0000ms, 1314ms total)
T70E8 027:321 JLINK_ReadMem (0x20005980, 0x0002 Bytes, ...) -- Read from C cache (2 bytes @ 0x20005980) - Data: 03 03  returns 0x00 (0000ms, 1314ms total)
